Freq.	V(n003)
1.00000000000000e+001	(4.40245425478429e-007dB,-9.74171934069722e-003°)
1.00230523807790e+001	(4.42277504429089e-007dB,-9.76417632556653e-003°)
1.00461579027840e+001	(4.44318966285044e-007dB,-9.78668507915036e-003°)
1.00693166885180e+001	(4.46369849619383e-007dB,-9.80924572078796e-003°)
1.00925288607668e+001	(4.48430196862506e-007dB,-9.83185837009210e-003°)
1.01157945425990e+001	(4.50500056230777e-007dB,-9.85452314695526e-003°)
1.01391138573668e+001	(4.52579472083250e-007dB,-9.87724017154231e-003°)
1.01624869287070e+001	(4.54668481064361e-007dB,-9.90000956429791e-003°)
1.01859138805412e+001	(4.56767137176437e-007dB,-9.92283144594259e-003°)
1.02093948370768e+001	(4.58875478992568e-007dB,-9.94570593747614e-003°)
1.02329299228075e+001	(4.60993550871809e-007dB,-9.96863316017652e-003°)
1.02565192625141e+001	(4.63121402959178e-007dB,-9.99161323560261e-003°)
1.02801629812647e+001	(4.65259073827764e-007dB,-1.00146462855919e-002°)
1.03038612044162e+001	(4.67406613622585e-007dB,-1.00377324322637e-002°)
1.03276140576140e+001	(4.69564062845386e-007dB,-1.00608717980190e-002°)
1.03514216667934e+001	(4.71731471641185e-007dB,-1.00840645055402e-002°)
1.03752841581801e+001	(4.73908886297690e-007dB,-1.01073106777927e-002°)
1.03992016582906e+001	(4.76096351173955e-007dB,-1.01306104380263e-002°)
1.04231742939330e+001	(4.78293910629033e-007dB,-1.01539639097739e-002°)
1.04472021922080e+001	(4.80501614807942e-007dB,-1.01773712168527e-002°)
1.04712854805090e+001	(4.82719509998390e-007dB,-1.02008324833670e-002°)
1.04954242865232e+001	(4.84947642488085e-007dB,-1.02243478337061e-002°)
1.05196187382322e+001	(4.87186058564735e-007dB,-1.02479173925459e-002°)
1.05438689639126e+001	(4.89434808373357e-007dB,-1.02715412848505e-002°)
1.05681750921366e+001	(4.91693936273005e-007dB,-1.02952196358714e-002°)
1.05925372517729e+001	(4.93963490480040e-007dB,-1.03189525711489e-002°)
1.06169555719872e+001	(4.96243523068136e-007dB,-1.03427402165128e-002°)
1.06414301822431e+001	(4.98534080324999e-007dB,-1.03665826980833e-002°)
1.06659612123026e+001	(5.00835210466991e-007dB,-1.03904801422715e-002°)
1.06905487922266e+001	(5.03146957853166e-007dB,-1.04144326757782e-002°)
1.07151930523761e+001	(5.05469380343159e-007dB,-1.04384404255987e-002°)
1.07398941234124e+001	(5.07802520367367e-007dB,-1.04625035190188e-002°)
1.07646521362983e+001	(5.10146429999463e-007dB,-1.04866220836197e-002°)
1.07894672222983e+001	(5.12501159384463e-007dB,-1.05107962472761e-002°)
1.08143395129794e+001	(5.14866756738728e-007dB,-1.05350261381562e-002°)
1.08392691402120e+001	(5.17243274135929e-007dB,-1.05593118847255e-002°)
1.08642562361706e+001	(5.19630759792429e-007dB,-1.05836536157443e-002°)
1.08893009333343e+001	(5.22029265781899e-007dB,-1.06080514602701e-002°)
1.09144033644875e+001	(5.24438842249353e-007dB,-1.06325055476587e-002°)
1.09395636627209e+001	(5.26859547054428e-007dB,-1.06570160075633e-002°)
1.09647819614318e+001	(5.29291416841556e-007dB,-1.06815829699351e-002°)
1.09900583943252e+001	(5.31734517184991e-007dB,-1.07062065650273e-002°)
1.10153930954141e+001	(5.34188892443784e-007dB,-1.07308869233912e-002°)
1.10407861990207e+001	(5.36654592762951e-007dB,-1.07556241758801e-002°)
1.10662378397766e+001	(5.39131683716747e-007dB,-1.07804184536489e-002°)
1.10917481526240e+001	(5.41620201949602e-007dB,-1.08052698881539e-002°)
1.11173172728159e+001	(5.44120203392496e-007dB,-1.08301786111558e-002°)
1.11429453359173e+001	(5.46631747833719e-007dB,-1.08551447547176e-002°)
1.11686324778056e+001	(5.49154885418286e-007dB,-1.08801684512085e-002°)
1.11943788346715e+001	(5.51689670148521e-007dB,-1.09052498333009e-002°)
1.12201845430196e+001	(5.54236156026748e-007dB,-1.09303890339750e-002°)
1.12460497396692e+001	(5.56794389340674e-007dB,-1.09555861865156e-002°)
1.12719745617551e+001	(5.59364439521861e-007dB,-1.09808414245166e-002°)
1.12979591467279e+001	(5.61946350929358e-007dB,-1.10061548818782e-002°)
1.13240036323555e+001	(5.64540175636835e-007dB,-1.10315266928107e-002°)
1.13501081567231e+001	(5.67145971503926e-007dB,-1.10569569918326e-002°)
1.13762728582343e+001	(5.69763800247573e-007dB,-1.10824459137737e-002°)
1.14024978756117e+001	(5.72393710084137e-007dB,-1.11079935937732e-002°)
1.14287833478977e+001	(5.75035758873249e-007dB,-1.11336001672830e-002°)
1.14551294144553e+001	(5.77690002545889e-007dB,-1.11592657700675e-002°)
1.14815362149688e+001	(5.80356498961689e-007dB,-1.11849905382017e-002°)
1.15080038894443e+001	(5.83035305980282e-007dB,-1.12107746080776e-002°)
1.15345325782109e+001	(5.85726473746681e-007dB,-1.12366181163995e-002°)
1.15611224219210e+001	(5.88430063977830e-007dB,-1.12625212001871e-002°)
1.15877735615512e+001	(5.91146134533359e-007dB,-1.12884839967763e-002°)
1.16144861384034e+001	(5.93874741344248e-007dB,-1.13145066438197e-002°)
1.16412602941049e+001	(5.96615940341472e-007dB,-1.13405892792869e-002°)
1.16680961706096e+001	(5.99369795170629e-007dB,-1.13667320414656e-002°)
1.16949939101987e+001	(6.02136359834041e-007dB,-1.13929350689626e-002°)
1.17219536554813e+001	(6.04915694119995e-007dB,-1.14191985007037e-002°)
1.17489755493953e+001	(6.07707855888122e-007dB,-1.14455224759357e-002°)
1.17760597352080e+001	(6.10512910712673e-007dB,-1.14719071342255e-002°)
1.18032063565173e+001	(6.13330910667315e-007dB,-1.14983526154630e-002°)
1.18304155572516e+001	(6.16161915540335e-007dB,-1.15248590598586e-002°)
1.18576874816716e+001	(6.19005992834636e-007dB,-1.15514266079476e-002°)
1.18850222743701e+001	(6.21863192695232e-007dB,-1.15780554005887e-002°)
1.19124200802737e+001	(6.24733582625026e-007dB,-1.16047455789658e-002°)
1.19398810446427e+001	(6.27617220483651e-007dB,-1.16314972845878e-002°)
1.19674053130724e+001	(6.30514173774009e-007dB,-1.16583106592887e-002°)
1.19949930314937e+001	(6.33424496498423e-007dB,-1.16851858452319e-002°)
1.20226443461741e+001	(6.36348248445177e-007dB,-1.17121229849069e-002°)
1.20503594037179e+001	(6.39285500974485e-007dB,-1.17391222211320e-002°)
1.20781383510678e+001	(6.42236306160012e-007dB,-1.17661836970544e-002°)
1.21059813355048e+001	(6.45200733433318e-007dB,-1.17933075561519e-002°)
1.21338885046497e+001	(6.48178848368651e-007dB,-1.18204939422330e-002°)
1.21618600064636e+001	(6.51170701111021e-007dB,-1.18477429994370e-002°)
1.21898959892486e+001	(6.54176370735261e-007dB,-1.18750548722366e-002°)
1.22179966016487e+001	(6.57195911243690e-007dB,-1.19024297054362e-002°)
1.22461619926504e+001	(6.60229390139212e-007dB,-1.19298676441753e-002°)
1.22743923115840e+001	(6.63276871067419e-007dB,-1.19573688339271e-002°)
1.23026877081238e+001	(6.66338419602560e-007dB,-1.19849334205006e-002°)
1.23310483322890e+001	(6.69414097461573e-007dB,-1.20125615500402e-002°)
1.23594743344450e+001	(6.72503974076015e-007dB,-1.20402533690289e-002°)
1.23879658653036e+001	(6.75608109234169e-007dB,-1.20680090242855e-002°)
1.24165230759240e+001	(6.78726574296247e-007dB,-1.20958286629684e-002°)
1.24451461177138e+001	(6.81859434836497e-007dB,-1.21237124325744e-002°)
1.24738351424294e+001	(6.85006752571854e-007dB,-1.21516604809412e-002°)
1.25025903021771e+001	(6.88168602719841e-007dB,-1.21796729562468e-002°)
1.25314117494141e+001	(6.91345046997394e-007dB,-1.22077500070105e-002°)
1.25602996369487e+001	(6.94536147121450e-007dB,-1.22358917820951e-002°)
1.25892541179416e+001	(6.97741980238185e-007dB,-1.22640984307048e-002°)
1.26182753459066e+001	(7.00962613850498e-007dB,-1.22923701023895e-002°)
1.26473634747114e+001	(7.04198107746672e-007dB,-1.23207069470429e-002°)
1.26765186585784e+001	(7.07448537144226e-007dB,-1.23491091149047e-002°)
1.27057410520853e+001	(7.10713975332025e-007dB,-1.23775767565598e-002°)
1.27350308101665e+001	(7.13994478241041e-007dB,-1.24061100229421e-002°)
1.27643880881134e+001	(7.17290132660721e-007dB,-1.24347090653323e-002°)
1.27938130415752e+001	(7.20600990664727e-007dB,-1.24633740353595e-002°)
1.28233058265601e+001	(7.23927131327888e-007dB,-1.24921050850035e-002°)
1.28528665994361e+001	(7.27268627939066e-007dB,-1.25209023665934e-002°)
1.28824955169313e+001	(7.30625549929816e-007dB,-1.25497660328097e-002°)
1.29121927361353e+001	(7.33997959017073e-007dB,-1.25786962366852e-002°)
1.29419584144998e+001	(7.37385945847593e-007dB,-1.26076931316055e-002°)
1.29717927098395e+001	(7.40789560566381e-007dB,-1.26367568713094e-002°)
1.30016957803328e+001	(7.44208891891539e-007dB,-1.26658876098908e-002°)
1.30316677845229e+001	(7.47644003468655e-007dB,-1.26950855017972e-002°)
1.30617088813183e+001	(7.51094972443902e-007dB,-1.27243507018344e-002°)
1.30918192299940e+001	(7.54561868248831e-007dB,-1.27536833651631e-002°)
1.31219989901920e+001	(7.58044766100960e-007dB,-1.27830836473030e-002°)
1.31522483219223e+001	(7.61543743146460e-007dB,-1.28125517041316e-002°)
1.31825673855640e+001	(7.65058866888229e-007dB,-1.28420876918864e-002°)
1.32129563418657e+001	(7.68590218329746e-007dB,-1.28716917671641e-002°)
1.32434153519466e+001	(7.72137868831218e-007dB,-1.29013640869229e-002°)
1.32739445772973e+001	(7.75701899396125e-007dB,-1.29311048084832e-002°)
1.33045441797808e+001	(7.79282375598709e-007dB,-1.29609140895274e-002°)
1.33352143216332e+001	(7.82879380371104e-007dB,-1.29907920881026e-002°)
1.33659551654643e+001	(7.86492990859480e-007dB,-1.30207389626179e-002°)
1.33967668742593e+001	(7.90123272638078e-007dB,-1.30507548718498e-002°)
1.34276496113785e+001	(7.93770316353650e-007dB,-1.30808399749405e-002°)
1.34586035405594e+001	(7.97434195295056e-007dB,-1.31109944313979e-002°)
1.34896288259164e+001	(8.01114986608466e-007dB,-1.31412184010984e-002°)
1.35207256319427e+001	(8.04812761654083e-007dB,-1.31715120442873e-002°)
1.35518941235103e+001	(8.08527607221349e-007dB,-1.32018755215779e-002°)
1.35831344658714e+001	(8.12259602385089e-007dB,-1.32323089939559e-002°)
1.36144468246594e+001	(8.16008822362814e-007dB,-1.32628126227765e-002°)
1.36458313658891e+001	(8.19775348158002e-007dB,-1.32933865697670e-002°)
1.36772882559584e+001	(8.23559260774131e-007dB,-1.33240309970276e-002°)
1.37088176616484e+001	(8.27360637357367e-007dB,-1.33547460670337e-002°)
1.37404197501251e+001	(8.31179558911186e-007dB,-1.33855319426325e-002°)
1.37720946889394e+001	(8.35016110296376e-007dB,-1.34163887870490e-002°)
1.38038426460287e+001	(8.38870370587756e-007dB,-1.34473167638834e-002°)
1.38356637897177e+001	(8.42742422717458e-007dB,-1.34783160371125e-002°)
1.38675582887188e+001	(8.46632339974337e-007dB,-1.35093867710928e-002°)
1.38995263121334e+001	(8.50540218791108e-007dB,-1.35405291305575e-002°)
1.39315680294529e+001	(8.54466134385281e-007dB,-1.35717432806216e-002°)
1.39636836105593e+001	(8.58410171617639e-007dB,-1.36030293867797e-002°)
1.39958732257261e+001	(8.62372413420313e-007dB,-1.36343876149076e-002°)
1.40281370456195e+001	(8.66352942725431e-007dB,-1.36658181312642e-002°)
1.40604752412990e+001	(8.70351846322432e-007dB,-1.36973211024916e-002°)
1.40928879842186e+001	(8.74369207143444e-007dB,-1.37288966956160e-002°)
1.41253754462274e+001	(8.78405113906558e-007dB,-1.37605450780478e-002°)
1.41579377995707e+001	(8.82459643757939e-007dB,-1.37922664175846e-002°)
1.41905752168908e+001	(8.86532895058953e-007dB,-1.38240608824102e-002°)
1.42232878712281e+001	(8.90624946884417e-007dB,-1.38559286410955e-002°)
1.42560759360218e+001	(8.94735882166457e-007dB,-1.38878698626015e-002°)
1.42889395851109e+001	(8.98865797337785e-007dB,-1.39198847162773e-002°)
1.43218789927353e+001	(9.03014773401871e-007dB,-1.39519733718629e-002°)
1.43548943335364e+001	(9.07182899076806e-007dB,-1.39841359994902e-002°)
1.43879857825583e+001	(9.11370266937990e-007dB,-1.40163727696824e-002°)
1.44211535152486e+001	(9.15576961846202e-007dB,-1.40486838533558e-002°)
1.44543977074592e+001	(9.19803070590878e-007dB,-1.40810694218212e-002°)
1.44877185354475e+001	(9.24048689604725e-007dB,-1.41135296467844e-002°)
1.45211161758773e+001	(9.28313901819868e-007dB,-1.41460647003464e-002°)
1.45545908058195e+001	(9.32598809454980e-007dB,-1.41786747550055e-002°)
1.45881426027534e+001	(9.36903487727564e-007dB,-1.42113599836578e-002°)
1.46217717445671e+001	(9.41228038856292e-007dB,-1.42441205595969e-002°)
1.46554784095590e+001	(9.45572549630597e-007dB,-1.42769566565168e-002°)
1.46892627764385e+001	(9.49937116483184e-007dB,-1.43098684485120e-002°)
1.47231250243271e+001	(9.54321826203487e-007dB,-1.43428561100780e-002°)
1.47570653327588e+001	(9.58726771366901e-007dB,-1.43759198161121e-002°)
1.47910838816819e+001	(9.63152056120751e-007dB,-1.44090597419160e-002°)
1.48251808514594e+001	(9.67597765325812e-007dB,-1.44422760631949e-002°)
1.48593564228699e+001	(9.72063995414789e-007dB,-1.44755689560578e-002°)
1.48936107771090e+001	(9.76550835105768e-007dB,-1.45089385970218e-002°)
1.49279440957898e+001	(9.81058388546071e-007dB,-1.45423851630099e-002°)
1.49623565609442e+001	(9.85586752168402e-007dB,-1.45759088313527e-002°)
1.49968483550236e+001	(9.90136014690845e-007dB,-1.46095097797899e-002°)
1.50314196609001e+001	(9.94706268688793e-007dB,-1.46431881864708e-002°)
1.50660706618673e+001	(9.99297627952841e-007dB,-1.46769442299561e-002°)
1.51008015416413e+001	(1.00391017541511e-006dB,-1.47107780892167e-002°)
1.51356124843619e+001	(1.00854401522292e-006dB,-1.47446899436372e-002°)
1.51705036745932e+001	(1.01319924188031e-006dB,-1.47786799730157e-002°)
1.52054752973248e+001	(1.01787595953461e-006dB,-1.48127483575646e-002°)
1.52405275379728e+001	(1.02257425690390e-006dB,-1.48468952779107e-002°)
1.52756605823806e+001	(1.02729425163608e-006dB,-1.48811209150995e-002°)
1.53108746168202e+001	(1.03203602280595e-006dB,-1.49154254505913e-002°)
1.53461698279928e+001	(1.03679968227546e-006dB,-1.49498090662665e-002°)
1.53815464030302e+001	(1.04158533804923e-006dB,-1.49842719444243e-002°)
1.54170045294954e+001	(1.04639307498804e-006dB,-1.50188142677833e-002°)
1.54525443953840e+001	(1.05122300688246e-006dB,-1.50534362194847e-002°)
1.54881661891247e+001	(1.05607523016521e-006dB,-1.50881379830910e-002°)
1.55238700995807e+001	(1.06094985284090e-006dB,-1.51229197425881e-002°)
1.55596563160506e+001	(1.06584697327090e-006dB,-1.51577816823862e-002°)
1.55955250282694e+001	(1.07076669945981e-006dB,-1.51927239873198e-002°)
1.56314764264094e+001	(1.07570913555497e-006dB,-1.52277468426512e-002°)
1.56675107010813e+001	(1.08067438763233e-006dB,-1.52628504340680e-002°)
1.57036280433354e+001	(1.08566254826728e-006dB,-1.52980349476863e-002°)
1.57398286446620e+001	(1.09067374089369e-006dB,-1.53333005700518e-002°)
1.57761126969933e+001	(1.09570806194425e-006dB,-1.53686474881403e-002°)
1.58124803927037e+001	(1.10076561942358e-006dB,-1.54040758893576e-002°)
1.58489319246110e+001	(1.10584652133630e-006dB,-1.54395859615428e-002°)
1.58854674859776e+001	(1.11095088147301e-006dB,-1.54751778929668e-002°)
1.59220872705115e+001	(1.11607879626638e-006dB,-1.55108518723359e-002°)
1.59587914723672e+001	(1.12123037950701e-006dB,-1.55466080887901e-002°)
1.59955802861465e+001	(1.12640574305683e-006dB,-1.55824467319056e-002°)
1.60324539069002e+001	(1.13160500263507e-006dB,-1.56183679916964e-002°)
1.60694125301286e+001	(1.13682824888846e-006dB,-1.56543720586141e-002°)
1.61064563517825e+001	(1.14207561296548e-006dB,-1.56904591235495e-002°)
1.61435855682647e+001	(1.14734719322747e-006dB,-1.57266293778325e-002°)
1.61808003764305e+001	(1.15264310732232e-006dB,-1.57628830132360e-002°)
1.62181009735891e+001	(1.15796346518331e-006dB,-1.57992202219729e-002°)
1.62554875575047e+001	(1.16330838445832e-006dB,-1.58356411967006e-002°)
1.62929603263970e+001	(1.16867797315198e-006dB,-1.58721461305199e-002°)
1.63305194789432e+001	(1.17407234312620e-006dB,-1.59087352169776e-002°)
1.63681652142779e+001	(1.17949161395753e-006dB,-1.59454086500649e-002°)
1.64058977319952e+001	(1.18493590522251e-006dB,-1.59821666242228e-002°)
1.64437172321491e+001	(1.19040531913979e-006dB,-1.60190093343383e-002°)
1.64816239152549e+001	(1.19589997914323e-006dB,-1.60559369757482e-002°)
1.65196179822900e+001	(1.20142000095206e-006dB,-1.60929497442407e-002°)
1.65576996346951e+001	(1.20696550607147e-006dB,-1.61300478360539e-002°)
1.65958690743754e+001	(1.21253660443472e-006dB,-1.61672314478792e-002°)
1.66341265037015e+001	(1.21813341947568e-006dB,-1.62045007768613e-002°)
1.66724721255104e+001	(1.22375606691356e-006dB,-1.62418560205986e-002°)
1.67109061431069e+001	(1.22940466632491e-006dB,-1.62792973771464e-002°)
1.67494287602642e+001	(1.23507934307223e-006dB,-1.63168250450150e-002°)
1.67880401812254e+001	(1.24078021287475e-006dB,-1.63544392231734e-002°)
1.68267406107045e+001	(1.24650739338035e-006dB,-1.63921401110493e-002°)
1.68655302538872e+001	(1.25226100802287e-006dB,-1.64299279085294e-002°)
1.69044093164324e+001	(1.25804118409347e-006dB,-1.64678028159620e-002°)
1.69433780044731e+001	(1.26384803731138e-006dB,-1.65057650341564e-002°)
1.69824365246172e+001	(1.26968169303910e-006dB,-1.65438147643852e-002°)
1.70215850839493e+001	(1.27554228242508e-006dB,-1.65819522083856e-002°)
1.70608238900310e+001	(1.28142991540259e-006dB,-1.66201775683592e-002°)
1.71001531509027e+001	(1.28734472890606e-006dB,-1.66584910469735e-002°)
1.71395730750841e+001	(1.29328684058335e-006dB,-1.66968928473637e-002°)
1.71790838715757e+001	(1.29925638351159e-006dB,-1.67353831731331e-002°)
1.72186857498599e+001	(1.30525347533865e-006dB,-1.67739622283543e-002°)
1.72583789199018e+001	(1.31127825492761e-006dB,-1.68126302175705e-002°)
1.72981635921508e+001	(1.31733083992635e-006dB,-1.68513873457967e-002°)
1.73380399775412e+001	(1.32341136341197e-006dB,-1.68902338185197e-002°)
1.73780082874935e+001	(1.32951995074697e-006dB,-1.69291698417002e-002°)
1.74180687339159e+001	(1.33565673693712e-006dB,-1.69681956217743e-002°)
1.74582215292048e+001	(1.34182185120221e-006dB,-1.70073113656543e-002°)
1.74984668862464e+001	(1.34801541504743e-006dB,-1.70465172807277e-002°)
1.75388050184174e+001	(1.35423757312181e-006dB,-1.70858135748618e-002°)
1.75792361395867e+001	(1.36048845078785e-006dB,-1.71252004564024e-002°)
1.76197604641161e+001	(1.36676818305130e-006dB,-1.71646781341754e-002°)
1.76603782068614e+001	(1.37307689720331e-006dB,-1.72042468174886e-002°)
1.77010895831740e+001	(1.37941473210695e-006dB,-1.72439067161323e-002°)
1.77418948089014e+001	(1.38578182083932e-006dB,-1.72836580403803e-002°)
1.77827941003890e+001	(1.39217829840619e-006dB,-1.73235010009904e-002°)
1.78237876744807e+001	(1.39860430367061e-006dB,-1.73634358092075e-002°)
1.78648757485203e+001	(1.40505996585239e-006dB,-1.74034626767623e-002°)
1.79060585403527e+001	(1.41154542960056e-006dB,-1.74435818158748e-002°)
1.79473362683250e+001	(1.41806082799221e-006dB,-1.74837934392533e-002°)
1.79887091512877e+001	(1.42460629796176e-006dB,-1.75240977600963e-002°)
1.80301774085955e+001	(1.43118198030093e-006dB,-1.75644949920953e-002°)
1.80717412601090e+001	(1.43778801773008e-006dB,-1.76049853494321e-002°)
1.81134009261958e+001	(1.44442454911229e-006dB,-1.76455690467846e-002°)
1.81551566277311e+001	(1.45109170752465e-006dB,-1.76862462993238e-002°)
1.81970085860996e+001	(1.45778964340215e-006dB,-1.77270173227175e-002°)
1.82389570231961e+001	(1.46451849560785e-006dB,-1.77678823331300e-002°)
1.82810021614272e+001	(1.47127840300481e-006dB,-1.78088415472258e-002°)
1.83231442237119e+001	(1.47806951795667e-006dB,-1.78498951821661e-002°)
1.83653834334832e+001	(1.48489197739783e-006dB,-1.78910434556153e-002°)
1.84077200146893e+001	(1.49174592790597e-006dB,-1.79322865857378e-002°)
1.84501541917945e+001	(1.49863151220147e-006dB,-1.79736247912017e-002°)
1.84926861897805e+001	(1.50554888071929e-006dB,-1.80150582911789e-002°)
1.85353162341479e+001	(1.51249818196577e-006dB,-1.80565873053472e-002°)
1.85780445509167e+001	(1.51947955480396e-006dB,-1.80982120538898e-002°)
1.86208713666284e+001	(1.52649315352615e-006dB,-1.81399327574984e-002°)
1.86637969083464e+001	(1.53353912856733e-006dB,-1.81817496373725e-002°)
1.87068214036578e+001	(1.54061762071919e-006dB,-1.82236629152224e-002°)
1.87499450806739e+001	(1.54772879006000e-006dB,-1.82656728132688e-002°)
1.87931681680324e+001	(1.55487278123876e-006dB,-1.83077795542461e-002°)
1.88364908948977e+001	(1.56204974854776e-006dB,-1.83499833613995e-002°)
1.88799134909627e+001	(1.56925984242198e-006dB,-1.83922844584918e-002°)
