Freq.	V(n003)
1.00000000000000e+001	(-7.53898463473602e+001dB,8.99902582806593e+001°)
1.00230523807790e+001	(-7.53698463453281e+001dB,8.99902358236744e+001°)
1.00461579027840e+001	(-7.53498463432866e+001dB,8.99902133149209e+001°)
1.00693166885180e+001	(-7.53298463412358e+001dB,8.99901907542792e+001°)
1.00925288607668e+001	(-7.53098463391754e+001dB,8.99901681416299e+001°)
1.01157945425990e+001	(-7.52898463371056e+001dB,8.99901454768530e+001°)
1.01391138573668e+001	(-7.52698463350261e+001dB,8.99901227598285e+001°)
1.01624869287070e+001	(-7.52498463329371e+001dB,8.99900999904357e+001°)
1.01859138805412e+001	(-7.52298463308385e+001dB,8.99900771685541e+001°)
1.02093948370768e+001	(-7.52098463287301e+001dB,8.99900542940625e+001°)
1.02329299228075e+001	(-7.51898463266121e+001dB,8.99900313668398e+001°)
1.02565192625141e+001	(-7.51698463244842e+001dB,8.99900083867644e+001°)
1.02801629812647e+001	(-7.51498463223465e+001dB,8.99899853537144e+001°)
1.03038612044162e+001	(-7.51298463201990e+001dB,8.99899622675677e+001°)
1.03276140576140e+001	(-7.51098463180416e+001dB,8.99899391282020e+001°)
1.03514216667934e+001	(-7.50898463158742e+001dB,8.99899159354945e+001°)
1.03752841581801e+001	(-7.50698463136967e+001dB,8.99898926893222e+001°)
1.03992016582906e+001	(-7.50498463115093e+001dB,8.99898693895620e+001°)
1.04231742939330e+001	(-7.50298463093117e+001dB,8.99898460360902e+001°)
1.04472021922080e+001	(-7.50098463071040e+001dB,8.99898226287831e+001°)
1.04712854805090e+001	(-7.49898463048861e+001dB,8.99897991675166e+001°)
1.04954242865232e+001	(-7.49698463026580e+001dB,8.99897756521663e+001°)
1.05196187382322e+001	(-7.49498463004196e+001dB,8.99897520826075e+001°)
1.05438689639126e+001	(-7.49298462981708e+001dB,8.99897284587151e+001°)
1.05681750921366e+001	(-7.49098462959117e+001dB,8.99897047803641e+001°)
1.05925372517729e+001	(-7.48898462936421e+001dB,8.99896810474288e+001°)
1.06169555719872e+001	(-7.48698462913621e+001dB,8.99896572597835e+001°)
1.06414301822431e+001	(-7.48498462890716e+001dB,8.99896334173019e+001°)
1.06659612123026e+001	(-7.48298462867704e+001dB,8.99896095198577e+001°)
1.06905487922266e+001	(-7.48098462844587e+001dB,8.99895855673242e+001°)
1.07151930523761e+001	(-7.47898462821363e+001dB,8.99895615595744e+001°)
1.07398941234124e+001	(-7.47698462798031e+001dB,8.99895374964810e+001°)
1.07646521362983e+001	(-7.47498462774592e+001dB,8.99895133779164e+001°)
1.07894672222983e+001	(-7.47298462751045e+001dB,8.99894892037527e+001°)
1.08143395129794e+001	(-7.47098462727389e+001dB,8.99894649738618e+001°)
1.08392691402120e+001	(-7.46898462703624e+001dB,8.99894406881153e+001°)
1.08642562361706e+001	(-7.46698462679749e+001dB,8.99894163463843e+001°)
1.08893009333343e+001	(-7.46498462655764e+001dB,8.99893919485397e+001°)
1.09144033644875e+001	(-7.46298462631668e+001dB,8.99893674944523e+001°)
1.09395636627209e+001	(-7.46098462607461e+001dB,8.99893429839924e+001°)
1.09647819614318e+001	(-7.45898462583142e+001dB,8.99893184170301e+001°)
1.09900583943252e+001	(-7.45698462558711e+001dB,8.99892937934350e+001°)
1.10153930954141e+001	(-7.45498462534167e+001dB,8.99892691130766e+001°)
1.10407861990207e+001	(-7.45298462509510e+001dB,8.99892443758241e+001°)
1.10662378397766e+001	(-7.45098462484739e+001dB,8.99892195815464e+001°)
1.10917481526240e+001	(-7.44898462459854e+001dB,8.99891947301118e+001°)
1.11173172728159e+001	(-7.44698462434854e+001dB,8.99891698213889e+001°)
1.11429453359173e+001	(-7.44498462409739e+001dB,8.99891448552453e+001°)
1.11686324778056e+001	(-7.44298462384508e+001dB,8.99891198315488e+001°)
1.11943788346715e+001	(-7.44098462359160e+001dB,8.99890947501667e+001°)
1.12201845430196e+001	(-7.43898462333695e+001dB,8.99890696109660e+001°)
1.12460497396692e+001	(-7.43698462308112e+001dB,8.99890444138135e+001°)
1.12719745617551e+001	(-7.43498462282412e+001dB,8.99890191585755e+001°)
1.12979591467279e+001	(-7.43298462256593e+001dB,8.99889938451181e+001°)
1.13240036323555e+001	(-7.43098462230655e+001dB,8.99889684733072e+001°)
1.13501081567231e+001	(-7.42898462204597e+001dB,8.99889430430082e+001°)
1.13762728582343e+001	(-7.42698462178418e+001dB,8.99889175540862e+001°)
1.14024978756117e+001	(-7.42498462152119e+001dB,8.99888920064062e+001°)
1.14287833478977e+001	(-7.42298462125699e+001dB,8.99888663998327e+001°)
1.14551294144553e+001	(-7.42098462099156e+001dB,8.99888407342299e+001°)
1.14815362149688e+001	(-7.41898462072491e+001dB,8.99888150094618e+001°)
1.15080038894443e+001	(-7.41698462045703e+001dB,8.99887892253919e+001°)
1.15345325782109e+001	(-7.41498462018792e+001dB,8.99887633818836e+001°)
1.15611224219210e+001	(-7.41298461991756e+001dB,8.99887374787998e+001°)
1.15877735615512e+001	(-7.41098461964595e+001dB,8.99887115160032e+001°)
1.16144861384034e+001	(-7.40898461937309e+001dB,8.99886854933562e+001°)
1.16412602941049e+001	(-7.40698461909897e+001dB,8.99886594107207e+001°)
1.16680961706096e+001	(-7.40498461882358e+001dB,8.99886332679585e+001°)
1.16949939101987e+001	(-7.40298461854693e+001dB,8.99886070649310e+001°)
1.17219536554813e+001	(-7.40098461826900e+001dB,8.99885808014993e+001°)
1.17489755493953e+001	(-7.39898461798978e+001dB,8.99885544775241e+001°)
1.17760597352080e+001	(-7.39698461770927e+001dB,8.99885280928658e+001°)
1.18032063565173e+001	(-7.39498461742747e+001dB,8.99885016473845e+001°)
1.18304155572516e+001	(-7.39298461714437e+001dB,8.99884751409402e+001°)
1.18576874816716e+001	(-7.39098461685997e+001dB,8.99884485733921e+001°)
1.18850222743701e+001	(-7.38898461657425e+001dB,8.99884219445994e+001°)
1.19124200802737e+001	(-7.38698461628721e+001dB,8.99883952544210e+001°)
1.19398810446427e+001	(-7.38498461599884e+001dB,8.99883685027154e+001°)
1.19674053130724e+001	(-7.38298461570915e+001dB,8.99883416893407e+001°)
1.19949930314937e+001	(-7.38098461541812e+001dB,8.99883148141548e+001°)
1.20226443461741e+001	(-7.37898461512574e+001dB,8.99882878770151e+001°)
1.20503594037179e+001	(-7.37698461483202e+001dB,8.99882608777789e+001°)
1.20781383510678e+001	(-7.37498461453693e+001dB,8.99882338163029e+001°)
1.21059813355048e+001	(-7.37298461424049e+001dB,8.99882066924438e+001°)
1.21338885046497e+001	(-7.37098461394268e+001dB,8.99881795060578e+001°)
1.21618600064636e+001	(-7.36898461364350e+001dB,8.99881522570006e+001°)
1.21898959892486e+001	(-7.36698461334293e+001dB,8.99881249451278e+001°)
1.22179966016487e+001	(-7.36498461304097e+001dB,8.99880975702946e+001°)
1.22461619926504e+001	(-7.36298461273763e+001dB,8.99880701323558e+001°)
1.22743923115840e+001	(-7.36098461243288e+001dB,8.99880426311661e+001°)
1.23026877081238e+001	(-7.35898461212672e+001dB,8.99880150665795e+001°)
1.23310483322890e+001	(-7.35698461181916e+001dB,8.99879874384500e+001°)
1.23594743344450e+001	(-7.35498461151017e+001dB,8.99879597466310e+001°)
1.23879658653036e+001	(-7.35298461119976e+001dB,8.99879319909757e+001°)
1.24165230759240e+001	(-7.35098461088791e+001dB,8.99879041713370e+001°)
1.24451461177138e+001	(-7.34898461057462e+001dB,8.99878762875674e+001°)
1.24738351424294e+001	(-7.34698461025989e+001dB,8.99878483395191e+001°)
1.25025903021771e+001	(-7.34498460994371e+001dB,8.99878203270438e+001°)
1.25314117494141e+001	(-7.34298460962606e+001dB,8.99877922499930e+001°)
1.25602996369487e+001	(-7.34098460930695e+001dB,8.99877641082179e+001°)
1.25892541179416e+001	(-7.33898460898637e+001dB,8.99877359015693e+001°)
1.26182753459066e+001	(-7.33698460866431e+001dB,8.99877076298976e+001°)
1.26473634747114e+001	(-7.33498460834076e+001dB,8.99876792930530e+001°)
1.26765186585784e+001	(-7.33298460801571e+001dB,8.99876508908851e+001°)
1.27057410520853e+001	(-7.33098460768917e+001dB,8.99876224232435e+001°)
1.27350308101665e+001	(-7.32898460736112e+001dB,8.99875938899771e+001°)
1.27643880881134e+001	(-7.32698460703155e+001dB,8.99875652909347e+001°)
1.27938130415752e+001	(-7.32498460670047e+001dB,8.99875366259646e+001°)
1.28233058265601e+001	(-7.32298460636785e+001dB,8.99875078949150e+001°)
1.28528665994361e+001	(-7.32098460603370e+001dB,8.99874790976334e+001°)
1.28824955169313e+001	(-7.31898460569801e+001dB,8.99874502339672e+001°)
1.29121927361353e+001	(-7.31698460536077e+001dB,8.99874213037633e+001°)
1.29419584144998e+001	(-7.31498460502197e+001dB,8.99873923068684e+001°)
1.29717927098395e+001	(-7.31298460468161e+001dB,8.99873632431287e+001°)
1.30016957803328e+001	(-7.31098460433968e+001dB,8.99873341123901e+001°)
1.30316677845229e+001	(-7.30898460399617e+001dB,8.99873049144982e+001°)
1.30617088813183e+001	(-7.30698460365107e+001dB,8.99872756492982e+001°)
1.30918192299940e+001	(-7.30498460330438e+001dB,8.99872463166348e+001°)
1.31219989901920e+001	(-7.30298460295609e+001dB,8.99872169163527e+001°)
1.31522483219223e+001	(-7.30098460260619e+001dB,8.99871874482959e+001°)
1.31825673855640e+001	(-7.29898460225468e+001dB,8.99871579123081e+001°)
1.32129563418657e+001	(-7.29698460190154e+001dB,8.99871283082328e+001°)
1.32434153519466e+001	(-7.29498460154678e+001dB,8.99870986359131e+001°)
1.32739445772973e+001	(-7.29298460119038e+001dB,8.99870688951915e+001°)
1.33045441797808e+001	(-7.29098460083233e+001dB,8.99870390859105e+001°)
1.33352143216332e+001	(-7.28898460047263e+001dB,8.99870092079119e+001°)
1.33659551654643e+001	(-7.28698460011127e+001dB,8.99869792610374e+001°)
1.33967668742593e+001	(-7.28498459974824e+001dB,8.99869492451282e+001°)
1.34276496113785e+001	(-7.28298459938354e+001dB,8.99869191600251e+001°)
1.34586035405594e+001	(-7.28098459901715e+001dB,8.99868890055686e+001°)
1.34896288259164e+001	(-7.27898459864907e+001dB,8.99868587815989e+001°)
1.35207256319427e+001	(-7.27698459827929e+001dB,8.99868284879557e+001°)
1.35518941235103e+001	(-7.27498459790781e+001dB,8.99867981244784e+001°)
1.35831344658714e+001	(-7.27298459753461e+001dB,8.99867676910060e+001°)
1.36144468246594e+001	(-7.27098459715968e+001dB,8.99867371873772e+001°)
1.36458313658891e+001	(-7.26898459678303e+001dB,8.99867066134302e+001°)
1.36772882559584e+001	(-7.26698459640464e+001dB,8.99866759690030e+001°)
1.37088176616484e+001	(-7.26498459602450e+001dB,8.99866452539330e+001°)
1.37404197501251e+001	(-7.26298459564261e+001dB,8.99866144680574e+001°)
1.37720946889394e+001	(-7.26098459525896e+001dB,8.99865836112130e+001°)
1.38038426460287e+001	(-7.25898459487353e+001dB,8.99865526832361e+001°)
1.38356637897177e+001	(-7.25698459448633e+001dB,8.99865216839629e+001°)
1.38675582887188e+001	(-7.25498459409733e+001dB,8.99864906132289e+001°)
1.38995263121334e+001	(-7.25298459370655e+001dB,8.99864594708694e+001°)
1.39315680294529e+001	(-7.25098459331396e+001dB,8.99864282567194e+001°)
1.39636836105593e+001	(-7.24898459291955e+001dB,8.99863969706132e+001°)
1.39958732257261e+001	(-7.24698459252333e+001dB,8.99863656123851e+001°)
1.40281370456195e+001	(-7.24498459212527e+001dB,8.99863341818687e+001°)
1.40604752412990e+001	(-7.24298459172538e+001dB,8.99863026788975e+001°)
1.40928879842186e+001	(-7.24098459132365e+001dB,8.99862711033044e+001°)
1.41253754462274e+001	(-7.23898459092006e+001dB,8.99862394549220e+001°)
1.41579377995707e+001	(-7.23698459051460e+001dB,8.99862077335824e+001°)
1.41905752168908e+001	(-7.23498459010728e+001dB,8.99861759391176e+001°)
1.42232878712281e+001	(-7.23298458969807e+001dB,8.99861440713589e+001°)
1.42560759360218e+001	(-7.23098458928698e+001dB,8.99861121301374e+001°)
1.42889395851109e+001	(-7.22898458887399e+001dB,8.99860801152837e+001°)
1.43218789927353e+001	(-7.22698458845909e+001dB,8.99860480266281e+001°)
1.43548943335364e+001	(-7.22498458804228e+001dB,8.99860158640005e+001°)
1.43879857825583e+001	(-7.22298458762354e+001dB,8.99859836272303e+001°)
1.44211535152486e+001	(-7.22098458720287e+001dB,8.99859513161467e+001°)
1.44543977074592e+001	(-7.21898458678026e+001dB,8.99859189305782e+001°)
1.44877185354475e+001	(-7.21698458635570e+001dB,8.99858864703532e+001°)
1.45211161758773e+001	(-7.21498458592918e+001dB,8.99858539352997e+001°)
1.45545908058195e+001	(-7.21298458550069e+001dB,8.99858213252450e+001°)
1.45881426027534e+001	(-7.21098458507022e+001dB,8.99857886400164e+001°)
1.46217717445671e+001	(-7.20898458463777e+001dB,8.99857558794404e+001°)
1.46554784095590e+001	(-7.20698458420331e+001dB,8.99857230433435e+001°)
1.46892627764385e+001	(-7.20498458376686e+001dB,8.99856901315515e+001°)
1.47231250243271e+001	(-7.20298458332839e+001dB,8.99856571438899e+001°)
1.47570653327588e+001	(-7.20098458288789e+001dB,8.99856240801839e+001°)
1.47910838816819e+001	(-7.19898458244536e+001dB,8.99855909402581e+001°)
1.48251808514594e+001	(-7.19698458200079e+001dB,8.99855577239368e+001°)
1.48593564228699e+001	(-7.19498458155417e+001dB,8.99855244310439e+001°)
1.48936107771090e+001	(-7.19298458110549e+001dB,8.99854910614030e+001°)
1.49279440957898e+001	(-7.19098458065473e+001dB,8.99854576148370e+001°)
1.49623565609442e+001	(-7.18898458020189e+001dB,8.99854240911687e+001°)
1.49968483550236e+001	(-7.18698457974697e+001dB,8.99853904902202e+001°)
1.50314196609001e+001	(-7.18498457928994e+001dB,8.99853568118135e+001°)
1.50660706618673e+001	(-7.18298457883081e+001dB,8.99853230557701e+001°)
1.51008015416413e+001	(-7.18098457836955e+001dB,8.99852892219108e+001°)
1.51356124843619e+001	(-7.17898457790617e+001dB,8.99852553100564e+001°)
1.51705036745932e+001	(-7.17698457744065e+001dB,8.99852213200270e+001°)
1.52054752973248e+001	(-7.17498457697297e+001dB,8.99851872516424e+001°)
1.52405275379728e+001	(-7.17298457650314e+001dB,8.99851531047221e+001°)
1.52756605823806e+001	(-7.17098457603115e+001dB,8.99851188790849e+001°)
1.53108746168202e+001	(-7.16898457555697e+001dB,8.99850845745494e+001°)
1.53461698279928e+001	(-7.16698457508060e+001dB,8.99850501909337e+001°)
1.53815464030302e+001	(-7.16498457460204e+001dB,8.99850157280556e+001°)
1.54170045294954e+001	(-7.16298457412126e+001dB,8.99849811857322e+001°)
1.54525443953840e+001	(-7.16098457363827e+001dB,8.99849465637805e+001°)
1.54881661891247e+001	(-7.15898457315305e+001dB,8.99849118620169e+001°)
1.55238700995807e+001	(-7.15698457266558e+001dB,8.99848770802574e+001°)
1.55596563160506e+001	(-7.15498457217587e+001dB,8.99848422183176e+001°)
1.55955250282694e+001	(-7.15298457168390e+001dB,8.99848072760127e+001°)
1.56314764264094e+001	(-7.15098457118966e+001dB,8.99847722531573e+001°)
1.56675107010813e+001	(-7.14898457069313e+001dB,8.99847371495659e+001°)
1.57036280433354e+001	(-7.14698457019432e+001dB,8.99847019650523e+001°)
1.57398286446620e+001	(-7.14498456969320e+001dB,8.99846666994300e+001°)
1.57761126969933e+001	(-7.14298456918976e+001dB,8.99846313525119e+001°)
1.58124803927037e+001	(-7.14098456868401e+001dB,8.99845959241107e+001°)
1.58489319246110e+001	(-7.13898456817592e+001dB,8.99845604140385e+001°)
1.58854674859776e+001	(-7.13698456766548e+001dB,8.99845248221070e+001°)
1.59220872705115e+001	(-7.13498456715269e+001dB,8.99844891481277e+001°)
1.59587914723672e+001	(-7.13298456663753e+001dB,8.99844533919112e+001°)
1.59955802861465e+001	(-7.13098456612000e+001dB,8.99844175532681e+001°)
1.60324539069002e+001	(-7.12898456560007e+001dB,8.99843816320083e+001°)
1.60694125301286e+001	(-7.12698456507775e+001dB,8.99843456279414e+001°)
1.61064563517825e+001	(-7.12498456455301e+001dB,8.99843095408765e+001°)
1.61435855682647e+001	(-7.12298456402585e+001dB,8.99842733706222e+001°)
1.61808003764305e+001	(-7.12098456349626e+001dB,8.99842371169868e+001°)
1.62181009735891e+001	(-7.11898456296422e+001dB,8.99842007797780e+001°)
1.62554875575047e+001	(-7.11698456242973e+001dB,8.99841643588033e+001°)
1.62929603263970e+001	(-7.11498456189277e+001dB,8.99841278538695e+001°)
1.63305194789432e+001	(-7.11298456135334e+001dB,8.99840912647830e+001°)
1.63681652142779e+001	(-7.11098456081141e+001dB,8.99840545913499e+001°)
1.64058977319952e+001	(-7.10898456026698e+001dB,8.99840178333758e+001°)
1.64437172321491e+001	(-7.10698455972004e+001dB,8.99839809906657e+001°)
1.64816239152549e+001	(-7.10498455917057e+001dB,8.99839440630243e+001°)
1.65196179822900e+001	(-7.10298455861857e+001dB,8.99839070502558e+001°)
1.65576996346951e+001	(-7.10098455806402e+001dB,8.99838699521639e+001°)
1.65958690743754e+001	(-7.09898455750691e+001dB,8.99838327685521e+001°)
1.66341265037015e+001	(-7.09698455694723e+001dB,8.99837954992231e+001°)
1.66724721255104e+001	(-7.09498455638496e+001dB,8.99837581439794e+001°)
1.67109061431069e+001	(-7.09298455582011e+001dB,8.99837207026228e+001°)
1.67494287602642e+001	(-7.09098455525264e+001dB,8.99836831749550e+001°)
1.67880401812254e+001	(-7.08898455468255e+001dB,8.99836455607768e+001°)
1.68267406107045e+001	(-7.08698455410983e+001dB,8.99836078598889e+001°)
1.68655302538872e+001	(-7.08498455353447e+001dB,8.99835700720915e+001°)
1.69044093164324e+001	(-7.08298455295645e+001dB,8.99835321971840e+001°)
1.69433780044731e+001	(-7.08098455237577e+001dB,8.99834942349658e+001°)
1.69824365246172e+001	(-7.07898455179240e+001dB,8.99834561852356e+001°)
1.70215850839493e+001	(-7.07698455120634e+001dB,8.99834180477916e+001°)
1.70608238900310e+001	(-7.07498455061758e+001dB,8.99833798224316e+001°)
1.71001531509027e+001	(-7.07298455002610e+001dB,8.99833415089530e+001°)
1.71395730750841e+001	(-7.07098454943189e+001dB,8.99833031071526e+001°)
1.71790838715757e+001	(-7.06898454883493e+001dB,8.99832646168269e+001°)
1.72186857498599e+001	(-7.06698454823522e+001dB,8.99832260377717e+001°)
1.72583789199018e+001	(-7.06498454763275e+001dB,8.99831873697824e+001°)
1.72981635921508e+001	(-7.06298454702749e+001dB,8.99831486126542e+001°)
1.73380399775412e+001	(-7.06098454641944e+001dB,8.99831097661815e+001°)
1.73780082874935e+001	(-7.05898454580858e+001dB,8.99830708301583e+001°)
1.74180687339159e+001	(-7.05698454519490e+001dB,8.99830318043782e+001°)
1.74582215292048e+001	(-7.05498454457839e+001dB,8.99829926886344e+001°)
1.74984668862464e+001	(-7.05298454395903e+001dB,8.99829534827193e+001°)
1.75388050184174e+001	(-7.05098454333681e+001dB,8.99829141864251e+001°)
1.75792361395867e+001	(-7.04898454271173e+001dB,8.99828747995436e+001°)
1.76197604641161e+001	(-7.04698454208375e+001dB,8.99828353218658e+001°)
1.76603782068614e+001	(-7.04498454145288e+001dB,8.99827957531825e+001°)
1.77010895831740e+001	(-7.04298454081910e+001dB,8.99827560932839e+001°)
1.77418948089014e+001	(-7.04098454018239e+001dB,8.99827163419596e+001°)
1.77827941003890e+001	(-7.03898453954274e+001dB,8.99826764989990e+001°)
1.78237876744807e+001	(-7.03698453890014e+001dB,8.99826365641908e+001°)
1.78648757485203e+001	(-7.03498453825458e+001dB,8.99825965373232e+001°)
1.79060585403527e+001	(-7.03298453760603e+001dB,8.99825564181841e+001°)
1.79473362683250e+001	(-7.03098453695449e+001dB,8.99825162065608e+001°)
1.79887091512877e+001	(-7.02898453629994e+001dB,8.99824759022399e+001°)
1.80301774085955e+001	(-7.02698453564237e+001dB,8.99824355050079e+001°)
1.80717412601090e+001	(-7.02498453498177e+001dB,8.99823950146506e+001°)
1.81134009261958e+001	(-7.02298453431812e+001dB,8.99823544309532e+001°)
1.81551566277311e+001	(-7.02098453365140e+001dB,8.99823137537007e+001°)
1.81970085860996e+001	(-7.01898453298161e+001dB,8.99822729826773e+001°)
1.82389570231961e+001	(-7.01698453230872e+001dB,8.99822321176669e+001°)
1.82810021614272e+001	(-7.01498453163273e+001dB,8.99821911584528e+001°)
1.83231442237119e+001	(-7.01298453095362e+001dB,8.99821501048178e+001°)
1.83653834334832e+001	(-7.01098453027138e+001dB,8.99821089565444e+001°)
1.84077200146893e+001	(-7.00898452958598e+001dB,8.99820677134143e+001°)
1.84501541917945e+001	(-7.00698452889742e+001dB,8.99820263752088e+001°)
1.84926861897805e+001	(-7.00498452820569e+001dB,8.99819849417088e+001°)
1.85353162341479e+001	(-7.00298452751075e+001dB,8.99819434126946e+001°)
1.85780445509167e+001	(-7.00098452681262e+001dB,8.99819017879461e+001°)
1.86208713666284e+001	(-6.99898452611126e+001dB,8.99818600672425e+001°)
1.86637969083464e+001	(-6.99698452540666e+001dB,8.99818182503626e+001°)
1.87068214036578e+001	(-6.99498452469881e+001dB,8.99817763370848e+001°)
1.87499450806739e+001	(-6.99298452398770e+001dB,8.99817343271867e+001°)
1.87931681680324e+001	(-6.99098452327330e+001dB,8.99816922204458e+001°)
1.88364908948977e+001	(-6.98898452255560e+001dB,8.99816500166386e+001°)
1.88799134909627e+001	(-6.98698452183459e+001dB,8.99816077155415e+001°)
